Command: /hwetools/work_area/frontend/gopalVamsi_b7/git_projects/AXI_FIFO_BFM_COPY/sim/synopsys_sim/./simv +UVM_TESTNAME=fifo_bfm_wr_test +UVM_VERBOSITY=UVM_MEDIUM -l fifo_bfm_wr_test/fifo_bfm_wr_test.log
Chronologic VCS simulator copyright 1991-2020
Contains Synopsys proprietary information.
Compiler version Q-2020.03-SP2-8_Full64; Runtime version Q-2020.03-SP2-8_Full64;  Aug 18 18:56 2023
UVM_INFO /hwetools/synosys/installed_tools/vcs/Q-2020.03-SP2-8/etc/uvm-1.2/base/uvm_root.svh(402) @ 0: reporter [UVM/RELNOTES] 
----------------------------------------------------------------
UVM-1.2.Synopsys
(C) 2007-2014 Mentor Graphics Corporation
(C) 2007-2014 Cadence Design Systems, Inc.
(C) 2006-2014 Synopsys, Inc.
(C) 2011-2013 Cypress Semiconductor Corp.
(C) 2013-2014 NVIDIA Corporation
----------------------------------------------------------------

  ***********       IMPORTANT RELEASE NOTES         ************

  You are using a version of the UVM library that has been compiled
  with `UVM_NO_DEPRECATED undefined.
  See http://www.eda.org/svdb/view.php?id=3313 for more details.

  You are using a version of the UVM library that has been compiled
  with `UVM_OBJECT_DO_NOT_NEED_CONSTRUCTOR undefined.
  See http://www.eda.org/svdb/view.php?id=3770 for more details.

      (Specify +UVM_NO_RELNOTES to turn off this notice)

*Verdi* Loading libsscore_vcs202003.so
FSDB Dumper for VCS, Release Verdi_Q-2020.03-SP2-8, Linux x86_64/64bit, 08/31/2021
(C) 1996 - 2021 by Synopsys, Inc.
*Verdi* : Create FSDB file 'novas.fsdb'
*Verdi* : Begin traversing the scopes, layer (0).
*Verdi* : Enable +all dumping.
*Verdi* : End of traversing.
UVM_INFO ../../src/hdl_top/tb_slave_assertions.sv(78) @ 0: reporter [SLAVE_ASSERTIONS_TB] TEST_BENCH_FOR_SLAVE_ASSERTIONS
UVM_INFO ../../src/hdl_top/slave_assertions.sv(70) @ 0: reporter [SLAVE_ASSERTIONS] SLAVE_ASSERTIONS
UVM_INFO ../../src/hdl_top/slave_agent_bfm/axi4_slave_driver_bfm.sv(84) @ 0: reporter [axi4 slave driver bfm] AXI4 SLAVE DRIVER BFM
UVM_INFO ../../src/hdl_top/slave_agent_bfm/axi4_slave_monitor_bfm.sv(82) @ 0: reporter [axi4 slave monitor bfm] AXI4 SLAVE MONITOR BFM
HDL_TOP
UVM_INFO @ 0: reporter [RNTST] Running test fifo_bfm_wr_test...
UVM_INFO ../../src/hdl_top/slave_agent_bfm/axi4_slave_agent_bfm.sv(174) @ 0: reporter [axi4 slave agent bfm] AXI4 SLAVE AGENT BFM
UVM_INFO /hwetools/synosys/installed_tools/vcs/Q-2020.03-SP2-8/etc/uvm-1.2/base/uvm_root.svh(589) @ 0: reporter [UVMTOP] UVM testbench topology:
----------------------------------------------------------------------------------------
Name                                             Type                        Size  Value
----------------------------------------------------------------------------------------
uvm_test_top                                     fifo_bfm_wr_test            -     @352 
  axi_env_h                                      axi_env                     -     @375 
    axi_slave_agent                              axi4_slave_agent            -     @402 
      axi4_slave_cov_h                           axi4_slave_coverage         -     @1286
        analysis_imp                             uvm_analysis_imp            -     @1295
      axi4_slave_drv_proxy_h                     axi4_slave_driver_proxy     -     @413 
        axi4_slave_read_addr_fifo_h              uvm_tlm_fifo #(T)           -     @678 
          get_ap                                 uvm_analysis_port           -     @717 
          get_peek_export                        uvm_get_peek_imp            -     @697 
          put_ap                                 uvm_analysis_port           -     @707 
          put_export                             uvm_put_imp                 -     @687 
        axi4_slave_read_data_in_fifo_h           uvm_tlm_fifo #(T)           -     @727 
          get_ap                                 uvm_analysis_port           -     @766 
          get_peek_export                        uvm_get_peek_imp            -     @746 
          put_ap                                 uvm_analysis_port           -     @756 
          put_export                             uvm_put_imp                 -     @736 
        axi4_slave_write_addr_fifo_h             uvm_tlm_fifo #(T)           -     @482 
          get_ap                                 uvm_analysis_port           -     @521 
          get_peek_export                        uvm_get_peek_imp            -     @501 
          put_ap                                 uvm_analysis_port           -     @511 
          put_export                             uvm_put_imp                 -     @491 
        axi4_slave_write_data_in_fifo_h          uvm_tlm_fifo #(T)           -     @531 
          get_ap                                 uvm_analysis_port           -     @570 
          get_peek_export                        uvm_get_peek_imp            -     @550 
          put_ap                                 uvm_analysis_port           -     @560 
          put_export                             uvm_put_imp                 -     @540 
        axi4_slave_write_data_out_fifo_h         uvm_tlm_fifo #(T)           -     @629 
          get_ap                                 uvm_analysis_port           -     @668 
          get_peek_export                        uvm_get_peek_imp            -     @648 
          put_ap                                 uvm_analysis_port           -     @658 
          put_export                             uvm_put_imp                 -     @638 
        axi4_slave_write_response_fifo_h         uvm_tlm_fifo #(T)           -     @580 
          get_ap                                 uvm_analysis_port           -     @619 
          get_peek_export                        uvm_get_peek_imp            -     @599 
          put_ap                                 uvm_analysis_port           -     @609 
          put_export                             uvm_put_imp                 -     @589 
        axi_read_rsp_port                        uvm_analysis_port           -     @472 
        axi_read_seq_item_port                   uvm_seq_item_pull_port      -     @452 
        axi_write_rsp_port                       uvm_analysis_port           -     @462 
        axi_write_seq_item_port                  uvm_seq_item_pull_port      -     @442 
        rsp_port                                 uvm_analysis_port           -     @432 
        seq_item_port                            uvm_seq_item_pull_port      -     @422 
      axi4_slave_mon_proxy_h                     axi4_slave_monitor_proxy    -     @1050
        axi4_slave_read_address_analysis_port    uvm_analysis_port           -     @1059
        axi4_slave_read_data_analysis_port       uvm_analysis_port           -     @1069
        axi4_slave_read_fifo_h                   uvm_tlm_analysis_fifo #(T)  -     @1227
          analysis_export                        uvm_analysis_imp            -     @1276
          get_ap                                 uvm_analysis_port           -     @1266
          get_peek_export                        uvm_get_peek_imp            -     @1246
          put_ap                                 uvm_analysis_port           -     @1256
          put_export                             uvm_put_imp                 -     @1236
        axi4_slave_write_address_analysis_port   uvm_analysis_port           -     @1079
        axi4_slave_write_address_fifo_h          uvm_tlm_analysis_fifo #(T)  -     @1109
          analysis_export                        uvm_analysis_imp            -     @1158
          get_ap                                 uvm_analysis_port           -     @1148
          get_peek_export                        uvm_get_peek_imp            -     @1128
          put_ap                                 uvm_analysis_port           -     @1138
          put_export                             uvm_put_imp                 -     @1118
        axi4_slave_write_data_analysis_port      uvm_analysis_port           -     @1089
        axi4_slave_write_data_fifo_h             uvm_tlm_analysis_fifo #(T)  -     @1168
          analysis_export                        uvm_analysis_imp            -     @1217
          get_ap                                 uvm_analysis_port           -     @1207
          get_peek_export                        uvm_get_peek_imp            -     @1187
          put_ap                                 uvm_analysis_port           -     @1197
          put_export                             uvm_put_imp                 -     @1177
        axi4_slave_write_response_analysis_port  uvm_analysis_port           -     @1099
      axi4_slave_read_seqr_h                     axi4_slave_read_sequencer   -     @913 
        rsp_export                               uvm_analysis_export         -     @922 
        seq_item_export                          uvm_seq_item_pull_imp       -     @1040
        arbitration_queue                        array                       0     -    
        lock_queue                               array                       0     -    
        num_last_reqs                            integral                    32    'd1  
        num_last_rsps                            integral                    32    'd1  
      axi4_slave_write_seqr_h                    axi4_slave_write_sequencer  -     @776 
        rsp_export                               uvm_analysis_export         -     @785 
        seq_item_export                          uvm_seq_item_pull_imp       -     @903 
        arbitration_queue                        array                       0     -    
        lock_queue                               array                       0     -    
        num_last_reqs                            integral                    32    'd1  
        num_last_rsps                            integral                    32    'd1  
    read_fifo_agent                              read_fifo_agent             -     @393 
      read_monitor                               read_fifo_monitor           -     @1317
        item_collected_port1                     uvm_analysis_port           -     @1326
    write_fifo_agent                             write_fifo_agent            -     @384 
      driver                                     write_fifo_driver           -     @1475
        rsp_port                                 uvm_analysis_port           -     @1494
        seq_item_port                            uvm_seq_item_pull_port      -     @1484
      monitor                                    fifo_bfm_monitor            -     @1504
        item_collected_port                      uvm_analysis_port           -     @1513
      sequencer                                  write_fifo_sequencer        -     @1338
        rsp_export                               uvm_analysis_export         -     @1347
        seq_item_export                          uvm_seq_item_pull_imp       -     @1465
        arbitration_queue                        array                       0     -    
        lock_queue                               array                       0     -    
        num_last_reqs                            integral                    32    'd1  
        num_last_rsps                            integral                    32    'd1  
----------------------------------------------------------------------------------------

UVM_INFO ../../src/verif/vip/axi_slave_vip/axi4_slave_driver_proxy.sv(112) @ 0: uvm_test_top.axi_env_h.axi_slave_agent.axi4_slave_drv_proxy_h [axi4_slave_driver_proxy] SLAVE_DRIVER_PROXY
UVM_INFO ../../src/verif/tb/test/fifo_bfm_wr_test.sv(44) @ 0: uvm_test_top [fifo_bfm_wr_test] fifo_bfm_wr_test
UVM_INFO ../../src/hdl_top/slave_agent_bfm/axi4_slave_driver_bfm.sv(111) @ 5000: reporter [AXI4_SLAVE_DRIVER_BFM] SYSTEM RESET ACTIVATED
UVM_INFO ../../src/hdl_top/slave_agent_bfm/axi4_slave_driver_bfm.sv(126) @ 15000: reporter [AXI4_SLAVE_DRIVER_BFM] SYSTEM RESET DE-ACTIVATED
UVM_INFO ../../src/verif/bfm/write_fifo/axi4_slave_nbk_write_64b_transfer_seq.sv(41) @ 15000: uvm_test_top.axi_env_h.axi_slave_agent.axi4_slave_write_seqr_h@@axi4_slave_nbk_write_64b_transfer_seq_h [SLAVE_WRITE_NBK_SEQ] slave_seq = 
------------------------------------------------------------------------
Name                 Type           Size  Value                         
------------------------------------------------------------------------
req                  axi4_slave_tx  -     @1579                         
  tx_type            string         4     READ                          
  arid               string         7     ARID_15                       
  araddr             integral       32    'h55c69ef7                    
  arlen              integral       8     'd14                          
  arsize             string         13    READ_64_BYTES                 
  arburst            string         9     READ_WRAP                     
  arlock             string         18    READ_NORMAL_ACCESS            
  arcache            string         15    READ_BUFFERABLE               
  arprot             string         30    READ_NORMAL_SECURE_INSTRUCTION
  arqos              integral       1     'h0                           
  rid                string         5     RID_1                         
  rdata[0]           integral       56    'h2920cdccdfee8a              
  rdata[1]           integral       56    'h74d69b478def98              
  rdata[2]           integral       56    'h890a1270515f8a              
  rdata[3]           integral       56    'hf2e2eca6723b6e              
  rdata[4]           integral       56    'hc634da0b470c7a              
  rdata[5]           integral       56    'h8589307bb44405              
  rdata[6]           integral       56    'h42fb868c406739              
  rdata[7]           integral       56    'h3012bbd2f3d52f              
  rdata[8]           integral       56    'hb39258a020d84               
  rdata[9]           integral       56    'hbbc20681601f97              
  rdata[10]          integral       56    'h19097502b07ed4              
  rdata[11]          integral       56    'h12c3fe8704286c              
  rdata[12]          integral       56    'haffd964e3b78ec              
  rdata[13]          integral       56    'h7a3d835438937e              
  rdata[14]          integral       56    'h7844977eae736b              
  rresp              string         9     READ_OKAY                     
  ruser              integral       4     'h7                           
  no_of_wait_states  integral       32    'h2                           
------------------------------------------------------------------------

running drive task
type of axi = 1
---------------------------------------------------------------------------------------------------------------------
Name                           Type               Size  Value                                                        
---------------------------------------------------------------------------------------------------------------------
req                            uvm_sequence_item  -     @1575                                                        
  awid                         integral           4     'h2                                                          
  awaddr                       integral           32    'h650d37df                                                   
  awlen                        integral           4     'h7                                                          
  awsize                       integral           3     'h3                                                          
  awburst                      integral           2     'h2                                                          
  awlock                       integral           2     'h0                                                          
  awcache                      integral           2     'h0                                                          
  awprot                       integral           3     'h0                                                          
  awqos                        integral           4     'hf                                                          
  awregion                     integral           4     'h4                                                          
  wdata                        integral           56    'h5b34a42196e9ac                                             
  wstrb                        integral           4     'hf                                                          
  wlast                        integral           1     'h1                                                          
  wid                          integral           4     'h4                                                          
  bid                          integral           4     'h1                                                          
  bresp                        integral           2     'h1                                                          
  arid                         integral           4     'h3                                                          
  araddr                       integral           32    'h93978811                                                   
  arlen                        integral           8     'h21                                                         
  arsize                       integral           3     'h0                                                          
  arburst                      integral           2     'h0                                                          
  arlock                       integral           2     'h3                                                          
  arcache                      integral           4     'h4                                                          
  arprot                       integral           3     'h6                                                          
  arqos                        integral           4     'h3                                                          
  arregion                     integral           4     'h3                                                          
  rid                          integral           4     'h7                                                          
  rdata                        integral           56    'hac87885056ac30                                             
  rresp                        integral           2     'h0                                                          
  rlast                        integral           1     'h0                                                          
  begin_time                   time               64    15000                                                        
  depth                        int                32    'd2                                                          
  parent sequence (name)       string             11    fifo_wr_seq                                                  
  parent sequence (full name)  string             61    uvm_test_top.axi_env_h.write_fifo_agent.sequencer.fifo_wr_seq
  sequencer                    string             49    uvm_test_top.axi_env_h.write_fifo_agent.sequencer            
---------------------------------------------------------------------------------------------------------------------
UVM_INFO ../../src/hdl_top/slave_agent_bfm/axi4_slave_driver_bfm.sv(136) @ 25000: reporter [AXI4_SLAVE_DRIVER_BFM] INSIDE WRITE_ADDRESS_PHASE
DRIVER, inside write address queue
DRIVER, finished drive task
running drive task
type of axi = 1
---------------------------------------------------------------------------------------------------------------------
Name                           Type               Size  Value                                                        
---------------------------------------------------------------------------------------------------------------------
req                            uvm_sequence_item  -     @1575                                                        
  awid                         integral           4     'h3                                                          
  awaddr                       integral           32    'hd077ba88                                                   
  awlen                        integral           4     'h7                                                          
  awsize                       integral           3     'h3                                                          
  awburst                      integral           2     'h1                                                          
  awlock                       integral           2     'h0                                                          
  awcache                      integral           2     'h0                                                          
  awprot                       integral           3     'h1                                                          
  awqos                        integral           4     'h2                                                          
  awregion                     integral           4     'hb                                                          
  wdata                        integral           56    'h2d87733e9045bf                                             
  wstrb                        integral           4     'hf                                                          
  wlast                        integral           1     'h0                                                          
  wid                          integral           4     'h7                                                          
  bid                          integral           4     'h0                                                          
  bresp                        integral           2     'h0                                                          
  arid                         integral           4     'h7                                                          
  araddr                       integral           32    'hc78cd8f7                                                   
  arlen                        integral           8     'h9f                                                         
  arsize                       integral           3     'h3                                                          
  arburst                      integral           2     'h3                                                          
  arlock                       integral           2     'h0                                                          
  arcache                      integral           4     'hb                                                          
  arprot                       integral           3     'h6                                                          
  arqos                        integral           4     'he                                                          
  arregion                     integral           4     'h6                                                          
  rid                          integral           4     'h3                                                          
  rdata                        integral           56    'h33eee5913e2646                                             
  rresp                        integral           2     'h2                                                          
  rlast                        integral           1     'h0                                                          
  begin_time                   time               64    45000                                                        
  depth                        int                32    'd2                                                          
  parent sequence (name)       string             11    fifo_wr_seq                                                  
  parent sequence (full name)  string             61    uvm_test_top.axi_env_h.write_fifo_agent.sequencer.fifo_wr_seq
  sequencer                    string             49    uvm_test_top.axi_env_h.write_fifo_agent.sequencer            
---------------------------------------------------------------------------------------------------------------------
DRIVER, inside write address queue
DRIVER, finished drive task
running drive task
type of axi = 1
---------------------------------------------------------------------------------------------------------------------
Name                           Type               Size  Value                                                        
---------------------------------------------------------------------------------------------------------------------
req                            uvm_sequence_item  -     @1575                                                        
  awid                         integral           4     'h3                                                          
  awaddr                       integral           32    'hceaad237                                                   
  awlen                        integral           4     'h7                                                          
  awsize                       integral           3     'h3                                                          
  awburst                      integral           2     'h1                                                          
  awlock                       integral           2     'h0                                                          
  awcache                      integral           2     'h0                                                          
  awprot                       integral           3     'h1                                                          
  awqos                        integral           4     'h7                                                          
  awregion                     integral           4     'hf                                                          
  wdata                        integral           56    'hd603e6539daee9                                             
  wstrb                        integral           4     'hf                                                          
  wlast                        integral           1     'h0                                                          
  wid                          integral           4     'ha                                                          
  bid                          integral           4     'h9                                                          
  bresp                        integral           2     'h2                                                          
  arid                         integral           4     'h1                                                          
  araddr                       integral           32    'h94a4b753                                                   
  arlen                        integral           8     'h52                                                         
  arsize                       integral           3     'h6                                                          
  arburst                      integral           2     'h2                                                          
  arlock                       integral           2     'h1                                                          
  arcache                      integral           4     'h8                                                          
  arprot                       integral           3     'h4                                                          
  arqos                        integral           4     'h6                                                          
  arregion                     integral           4     'hb                                                          
  rid                          integral           4     'h6                                                          
  rdata                        integral           56    'he30c50655d7f30                                             
  rresp                        integral           2     'h0                                                          
  rlast                        integral           1     'h0                                                          
  begin_time                   time               64    75000                                                        
  depth                        int                32    'd2                                                          
  parent sequence (name)       string             11    fifo_wr_seq                                                  
  parent sequence (full name)  string             61    uvm_test_top.axi_env_h.write_fifo_agent.sequencer.fifo_wr_seq
  sequencer                    string             49    uvm_test_top.axi_env_h.write_fifo_agent.sequencer            
---------------------------------------------------------------------------------------------------------------------
DRIVER, inside write address queue
DRIVER, finished drive task
UVM_INFO ../../src/hdl_top/slave_agent_bfm/axi4_slave_driver_bfm.sv(147) @ 105000: reporter [SLAVE_DRIVER_WADDR_PHASE] outside of awvalid
running drive task
type of axi = 1
---------------------------------------------------------------------------------------------------------------------
Name                           Type               Size  Value                                                        
---------------------------------------------------------------------------------------------------------------------
req                            uvm_sequence_item  -     @1575                                                        
  awid                         integral           4     'h0                                                          
  awaddr                       integral           32    'hbc0e9e62                                                   
  awlen                        integral           4     'h7                                                          
  awsize                       integral           3     'h3                                                          
  awburst                      integral           2     'h2                                                          
  awlock                       integral           2     'h0                                                          
  awcache                      integral           2     'h0                                                          
  awprot                       integral           3     'h1                                                          
  awqos                        integral           4     'h3                                                          
  awregion                     integral           4     'h4                                                          
  wdata                        integral           56    'hee94c3bb638d2c                                             
  wstrb                        integral           4     'hf                                                          
  wlast                        integral           1     'h1                                                          
  wid                          integral           4     'he                                                          
  bid                          integral           4     'hf                                                          
  bresp                        integral           2     'h3                                                          
  arid                         integral           4     'h8                                                          
  araddr                       integral           32    'he13c8e01                                                   
  arlen                        integral           8     'hda                                                         
  arsize                       integral           3     'h3                                                          
  arburst                      integral           2     'h1                                                          
  arlock                       integral           2     'h0                                                          
  arcache                      integral           4     'h4                                                          
  arprot                       integral           3     'h0                                                          
  arqos                        integral           4     'h9                                                          
  arregion                     integral           4     'h9                                                          
  rid                          integral           4     'hb                                                          
  rdata                        integral           56    'h3ca587f26ec2c4                                             
  rresp                        integral           2     'h0                                                          
  rlast                        integral           1     'h0                                                          
  begin_time                   time               64    105000                                                       
  depth                        int                32    'd2                                                          
  parent sequence (name)       string             11    fifo_wr_seq                                                  
  parent sequence (full name)  string             61    uvm_test_top.axi_env_h.write_fifo_agent.sequencer.fifo_wr_seq
  sequencer                    string             49    uvm_test_top.axi_env_h.write_fifo_agent.sequencer            
---------------------------------------------------------------------------------------------------------------------
"../../src/hdl_top/slave_assertions.sv", 93: top.genblk1[0].axi4_slave_agent_bfm_h.axi4_slave_drv_bfm_h.S_A.AXI_WA_UNKNOWN_SIGNALS_CHECK: started at 105000ps failed at 105000ps
	Offending '((((((((!$isunknown(awid)) && (!$isunknown(awaddr))) && (!$isunknown(awlen))) && (!$isunknown(awsize))) && (!$isunknown(awburst))) && (!$isunknown(awlock))) && (!$isunknown(awcache))) && (!$isunknown(awprot)))'
"../../src/hdl_top/slave_assertions.sv", 84: top.genblk1[0].axi4_slave_agent_bfm_h.axi4_slave_drv_bfm_h.S_A.AXI_WA_STABLE_SIGNALS_CHECK: started at 105000ps failed at 115000ps
	Offending '((((((($stable(awid) && $stable(awaddr)) && $stable(awlen)) && $stable(awsize)) && $stable(awburst)) && $stable(awlock)) && $stable(awcache)) && $stable(awprot))'
DRIVER, inside write address queue
UVM_INFO ../../src/verif/vip/axi_slave_vip/axi4_slave_driver_proxy.sv(166) @ 125000: uvm_test_top.axi_env_h.axi_slave_agent.axi4_slave_drv_proxy_h [DEBUG_SLAVE_WRITE_ADDR_PROXY] AFTER :: Received req packet 
 ------------------------------------------------------------
Name           Type           Size  Value                   
------------------------------------------------------------
axi4_slave_tx  axi4_slave_tx  -     @1659                   
  tx_type      string         5     WRITE                   
  awid         string         6     AWID_0                  
  awaddr       integral       32    'h0                     
  awlen        integral       8     'd0                     
  awsize       string         12    WRITE_1_BYTE            
  awburst      string         11    WRITE_FIXED             
  awlock       string         19    WRITE_NORMAL_ACCESS     
  awcache      string         16    WRITE_BUFFERABLE        
  awprot       string         24    WRITE_NORMAL_SECURE_DATA
  awqos        integral       1     'h0                     
  wlast        integral       1     'd0                     
  wuser        integral       4     'd0                     
  bid          string         5     BID_0                   
  bresp        string         10    WRITE_OKAY              
  buser        integral       4     'd0                     
------------------------------------------------------------

UVM_INFO ../../src/verif/vip/axi_slave_vip/axi4_slave_driver_proxy.sv(281) @ 125000: uvm_test_top.axi_env_h.axi_slave_agent.axi4_slave_drv_proxy_h [SLAVE_STATUS_CHECK] AFTER_FORK_JOIN_ANY:: SLAVE_ADDRESS_CHANNEL_STATUS = 
 FINISHED
UVM_INFO ../../src/verif/vip/axi_slave_vip/axi4_slave_driver_proxy.sv(282) @ 125000: uvm_test_top.axi_env_h.axi_slave_agent.axi4_slave_drv_proxy_h [SLAVE_STATUS_CHECK] AFTER_FORK_JOIN_ANY:: SLAVE_WDATA_CHANNEL_STATUS = 
 WAITING
UVM_INFO ../../src/verif/vip/axi_slave_vip/axi4_slave_driver_proxy.sv(283) @ 125000: uvm_test_top.axi_env_h.axi_slave_agent.axi4_slave_drv_proxy_h [SLAVE_STATUS_CHECK] AFTER_FORK_JOIN_ANY:: SLAVE_WRESP_CHANNEL_STATUS = 
 WAITING
UVM_INFO ../../src/verif/bfm/write_fifo/axi4_slave_nbk_write_64b_transfer_seq.sv(41) @ 125000: uvm_test_top.axi_env_h.axi_slave_agent.axi4_slave_write_seqr_h@@axi4_slave_nbk_write_64b_transfer_seq_h [SLAVE_WRITE_NBK_SEQ] slave_seq = 
--------------------------------------------------------------------
Name                 Type           Size  Value                     
--------------------------------------------------------------------
req                  axi4_slave_tx  -     @1674                     
  tx_type            string         4     READ                      
  arid               string         6     ARID_0                    
  araddr             integral       32    'hdefa9686                
  arlen              integral       8     'd127                     
  arsize             string         11    READ_1_BYTE               
  arburst            string         9     READ_INCR                 
  arlock             string         18    READ_NORMAL_ACCESS        
  arcache            string         13    READ_ALLOCATE             
  arprot             string         26    READ_NORMAL_NONSECURE_DATA
  arqos              integral       1     'h1                       
  rid                string         5     RID_6                     
  rdata[0]           integral       56    'h6a0beb7529228d          
  rdata[1]           integral       56    'hf5dfd3952ab4ab          
  rdata[2]           integral       56    'hf93bcfcaec411b          
  rdata[3]           integral       56    'h15aac67b447b5d          
  rdata[4]           integral       56    'h9a821acd52a246          
  rdata[5]           integral       56    'h900d4f6f973e48          
  rdata[6]           integral       56    'hbf937911e2b099          
  rdata[7]           integral       56    'hc3add261ec2b7c          
  rdata[8]           integral       56    'hff239c65d8fc9e          
  rdata[9]           integral       56    'ha2ac00a64413ad          
  rdata[10]          integral       56    'h37965174f25896          
  rdata[11]          integral       56    'hd0dc5c64630e72          
  rdata[12]          integral       56    'h3ee1e36758a0cc          
  rdata[13]          integral       56    'hdeaf4451125937          
  rdata[14]          integral       56    'h270814b82f926e          
  rdata[15]          integral       56    'h134e347c0c47e4          
  rdata[16]          integral       56    'haeef6ed0e7da5e          
  rdata[17]          integral       56    'hc8a53fa389a829          
  rdata[18]          integral       56    'h3eedc642df8887          
  rdata[19]          integral       56    'hd34f3a0064862c          
  rdata[20]          integral       56    'ha0b4a5a9935a3d          
  rdata[21]          integral       56    'hc457514fb05bd           
  rdata[22]          integral       56    'h28510c3ebfad5a          
  rdata[23]          integral       56    'hd1fb57ec99c1f9          
  rdata[24]          integral       56    'h59c4b82b142d3d          
  rdata[25]          integral       56    'he76dc80b954478          
  rdata[26]          integral       56    'he655f51cb80aa7          
  rdata[27]          integral       56    'hc1d7286fce407d          
  rdata[28]          integral       56    'h6383a9234a03fe          
  rdata[29]          integral       56    'hc8b9a8a1d95fd           
  rdata[30]          integral       56    'h576fb06f284b2           
  rdata[31]          integral       56    'ha01bb9d125d200          
  rdata[32]          integral       56    'he5ccaccc3584fa          
  rdata[33]          integral       56    'he66460ea181789          
  rdata[34]          integral       56    'hed4d0d0b1de59d          
  rdata[35]          integral       56    'heb14ae7adbc97e          
  rdata[36]          integral       56    'ha73ab302c9c3be          
  rdata[37]          integral       56    'h95c6dff14b2ae5          
  rdata[38]          integral       56    'ha38f604fcc3bd8          
  rdata[39]          integral       56    'he7e5450ed3f09e          
  rdata[40]          integral       56    'hd6f7e86b60aad0          
  rdata[41]          integral       56    'hc507be5869fb7           
  rdata[42]          integral       56    'h35e95ba46d6fd8          
  rdata[43]          integral       56    'h84dd3385dd0ce1          
  rdata[44]          integral       56    'h5a7db9463753e1          
  rdata[45]          integral       56    'h7825ab22893b95          
  rdata[46]          integral       56    'ha09cd5e399aa16          
  rdata[47]          integral       56    'hb8da4d46bfa73           
  rdata[48]          integral       56    'hb2ac1ccf10a82a          
  rdata[49]          integral       56    'h7adfd27b2b834e          
  rdata[50]          integral       56    'hb819bb87cff566          
  rdata[51]          integral       56    'ha9920f587ec2b2          
  rdata[52]          integral       56    'he55affd5f396f0          
  rdata[53]          integral       56    'hc097b7a31739bd          
  rdata[54]          integral       56    'hf9536d71422266          
  rdata[55]          integral       56    'h18073271d4dcee          
  rdata[56]          integral       56    'h40e9356b5b42c5          
  rdata[57]          integral       56    'h7eec6c25839ccd          
  rdata[58]          integral       56    'hd46eec4bfbc3d           
  rdata[59]          integral       56    'h829a9f7a86cbe2          
  rdata[60]          integral       56    'h1ae097084a0375          
  rdata[61]          integral       56    'h1199f8a68b5723          
  rdata[62]          integral       56    'h803a52bb1978f2          
  rdata[63]          integral       56    'h18b52f4d4b455           
  rdata[64]          integral       56    'hc3c7100cab69b4          
  rdata[65]          integral       56    'he9921f4b81b466          
  rdata[66]          integral       56    'h882e957dcb3479          
  rdata[67]          integral       56    'he86d18d1e7552b          
  rdata[68]          integral       56    'h1f8ac76ab0e9c0          
  rdata[69]          integral       56    'h94cb69dadafdbb          
  rdata[70]          integral       56    'h4a2df2c67fb17d          
  rdata[71]          integral       56    'hf3734ce537a77b          
  rdata[72]          integral       56    'h4dd396fcd9f612          
  rdata[73]          integral       56    'hb3fb2a248ec978          
  rdata[74]          integral       56    'h24753ea2d50f49          
  rdata[75]          integral       56    'h71443312e3d4b7          
  rdata[76]          integral       56    'h57077a05e87dbd          
  rdata[77]          integral       56    'h84563d9b3057a4          
  rdata[78]          integral       56    'h2798e31d1b2216          
  rdata[79]          integral       56    'h22b2fbed1652aa          
  rdata[80]          integral       56    'he5498b69a0a5cd          
  rdata[81]          integral       56    'had4cb2b199833f          
  rdata[82]          integral       56    'hc841b46a4a31ca          
  rdata[83]          integral       56    'hb47987965b8d68          
  rdata[84]          integral       56    'hb581a27ff2f783          
  rdata[85]          integral       56    'he005044fcf4ce7          
  rdata[86]          integral       56    'h5b30302c4f3696          
  rdata[87]          integral       56    'h30fff0e454602           
  rdata[88]          integral       56    'hb13c5e9831ae15          
  rdata[89]          integral       56    'ha16bf67114ebe4          
  rdata[90]          integral       56    'hcc8995ec5248e4          
  rdata[91]          integral       56    'hd19aaa0493093c          
  rdata[92]          integral       56    'h90b7e91843d8ad          
  rdata[93]          integral       56    'h9a0da071313d6d          
  rdata[94]          integral       56    'hbecb835cb1b886          
  rdata[95]          integral       56    'h6823eeeb729cab          
  rdata[96]          integral       56    'hed1859a1087e0b          
  rdata[97]          integral       56    'h7ae31fb88ffaac          
  rdata[98]          integral       56    'h1f39ce67683edd          
  rdata[99]          integral       56    'h6b9c960cd42f33          
  rdata[100]         integral       56    'h4f4db451d38e9           
  rdata[101]         integral       56    'h19de72adf32e77          
  rdata[102]         integral       56    'h513a6a54fc586c          
  rdata[103]         integral       56    'hc3f064e19738ee          
  rdata[104]         integral       56    'h130bcdc44cbda2          
  rdata[105]         integral       56    'h40fd696c45a9d5          
  rdata[106]         integral       56    'h99e3b96f237932          
  rdata[107]         integral       56    'h18e00e1aa9d0a2          
  rdata[108]         integral       56    'h814c52adb7c2f8          
  rdata[109]         integral       56    'h8bcfb43fa512b3          
  rdata[110]         integral       56    'ha88f04c4ba91c           
  rdata[111]         integral       56    'h17382a3009fd3c          
  rdata[112]         integral       56    'h552c57379a2301          
  rdata[113]         integral       56    'h867e63fb52e1a           
  rdata[114]         integral       56    'h829a1166df70cb          
  rdata[115]         integral       56    'h8210ce4594cd5d          
  rdata[116]         integral       56    'hf0a6df0e535027          
  rdata[117]         integral       56    'he4bad5fb94de1b          
  rdata[118]         integral       56    'h51cc24a75fda6d          
  rdata[119]         integral       56    'ha2b58f3e19eb8f          
  rdata[120]         integral       56    'hd04419551c8afc          
  rdata[121]         integral       56    'h369213fab48594          
  rdata[122]         integral       56    'h14a77626edb0ee          
  rdata[123]         integral       56    'h1ae914945e620b          
  rdata[124]         integral       56    'h5f51ba750e2ce1          
  rdata[125]         integral       56    'h77ed13f7de49d1          
  rdata[126]         integral       56    'h16f3b4974364e5          
  rdata[127]         integral       56    'h96185f0f650b1f          
  rresp              string         9     READ_OKAY                 
  ruser              integral       4     'h2                       
  no_of_wait_states  integral       32    'h2                       
--------------------------------------------------------------------

DRIVER, finished drive task
UVM_INFO ../../src/hdl_top/slave_agent_bfm/axi4_slave_driver_bfm.sv(136) @ 135000: reporter [AXI4_SLAVE_DRIVER_BFM] INSIDE WRITE_ADDRESS_PHASE
running drive task
type of axi = 1
---------------------------------------------------------------------------------------------------------------------
Name                           Type               Size  Value                                                        
---------------------------------------------------------------------------------------------------------------------
req                            uvm_sequence_item  -     @1575                                                        
  awid                         integral           4     'h4                                                          
  awaddr                       integral           32    'hd4d6bf3d                                                   
  awlen                        integral           4     'h7                                                          
  awsize                       integral           3     'h3                                                          
  awburst                      integral           2     'h1                                                          
  awlock                       integral           2     'h0                                                          
  awcache                      integral           2     'h0                                                          
  awprot                       integral           3     'h1                                                          
  awqos                        integral           4     'hd                                                          
  awregion                     integral           4     'h2                                                          
  wdata                        integral           56    'h7ecc1868d3b88e                                             
  wstrb                        integral           4     'hf                                                          
  wlast                        integral           1     'h1                                                          
  wid                          integral           4     'h2                                                          
  bid                          integral           4     'hc                                                          
  bresp                        integral           2     'h1                                                          
  arid                         integral           4     'h1                                                          
  araddr                       integral           32    'hf2955ff1                                                   
  arlen                        integral           8     'h78                                                         
  arsize                       integral           3     'h0                                                          
  arburst                      integral           2     'h3                                                          
  arlock                       integral           2     'h1                                                          
  arcache                      integral           4     'h4                                                          
  arprot                       integral           3     'h6                                                          
  arqos                        integral           4     'hf                                                          
  arregion                     integral           4     'hc                                                          
  rid                          integral           4     'ha                                                          
  rdata                        integral           56    'hd6bcdc4f104a34                                             
  rresp                        integral           2     'h0                                                          
  rlast                        integral           1     'h0                                                          
  begin_time                   time               64    135000                                                       
  depth                        int                32    'd2                                                          
  parent sequence (name)       string             11    fifo_wr_seq                                                  
  parent sequence (full name)  string             61    uvm_test_top.axi_env_h.write_fifo_agent.sequencer.fifo_wr_seq
  sequencer                    string             49    uvm_test_top.axi_env_h.write_fifo_agent.sequencer            
---------------------------------------------------------------------------------------------------------------------
UVM_INFO ../../src/hdl_top/slave_agent_bfm/axi4_slave_driver_bfm.sv(147) @ 145000: reporter [SLAVE_DRIVER_WADDR_PHASE] outside of awvalid
DRIVER, inside write address queue
UVM_INFO ../../src/hdl_top/slave_agent_bfm/axi4_slave_driver_bfm.sv(200) @ 155000: reporter [SLAVE_DRIVER_WRITE_DATA_PHASE] outside of wvalid
"../../src/hdl_top/slave_assertions.sv", 124: top.genblk1[0].axi4_slave_agent_bfm_h.axi4_slave_drv_bfm_h.S_A.AXI_WD_UNKNOWN_SIGNALS_CHECK: started at 155000ps failed at 155000ps
	Offending '((((!$isunknown(wdata)) && (!$isunknown(wstrb))) && (!$isunknown(wlast))) && (!$isunknown(wuser)))'
"../../src/hdl_top/slave_assertions.sv", 84: top.genblk1[0].axi4_slave_agent_bfm_h.axi4_slave_drv_bfm_h.S_A.AXI_WA_STABLE_SIGNALS_CHECK: started at 145000ps failed at 155000ps
	Offending '((((((($stable(awid) && $stable(awaddr)) && $stable(awlen)) && $stable(awsize)) && $stable(awburst)) && $stable(awlock)) && $stable(awcache)) && $stable(awprot))'
DRIVER, finished drive task
UVM_INFO ../../src/verif/vip/axi_slave_vip/axi4_slave_driver_proxy.sv(166) @ 165000: uvm_test_top.axi_env_h.axi_slave_agent.axi4_slave_drv_proxy_h [DEBUG_SLAVE_WRITE_ADDR_PROXY] AFTER :: Received req packet 
 ------------------------------------------------------------
Name           Type           Size  Value                   
------------------------------------------------------------
axi4_slave_tx  axi4_slave_tx  -     @1702                   
  tx_type      string         5     WRITE                   
  awid         string         6     AWID_3                  
  awaddr       integral       32    'hd077ba88              
  awlen        integral       8     'd7                     
  awsize       string         13    WRITE_8_BYTES           
  awburst      string         10    WRITE_INCR              
  awlock       string         19    WRITE_NORMAL_ACCESS     
  awcache      string         16    WRITE_BUFFERABLE        
  awprot       string         24    WRITE_NORMAL_SECURE_DATA
  awqos        integral       1     'h0                     
  wlast        integral       1     'd0                     
  wuser        integral       4     'd0                     
  bid          string         5     BID_0                   
  bresp        string         12    WRITE_DECERR            
  buser        integral       4     'd0                     
------------------------------------------------------------

UVM_INFO ../../src/verif/vip/axi_slave_vip/axi4_slave_driver_proxy.sv(281) @ 165000: uvm_test_top.axi_env_h.axi_slave_agent.axi4_slave_drv_proxy_h [SLAVE_STATUS_CHECK] AFTER_FORK_JOIN_ANY:: SLAVE_ADDRESS_CHANNEL_STATUS = 
 FINISHED
UVM_INFO ../../src/verif/vip/axi_slave_vip/axi4_slave_driver_proxy.sv(282) @ 165000: uvm_test_top.axi_env_h.axi_slave_agent.axi4_slave_drv_proxy_h [SLAVE_STATUS_CHECK] AFTER_FORK_JOIN_ANY:: SLAVE_WDATA_CHANNEL_STATUS = 
 WAITING
UVM_INFO ../../src/verif/vip/axi_slave_vip/axi4_slave_driver_proxy.sv(283) @ 165000: uvm_test_top.axi_env_h.axi_slave_agent.axi4_slave_drv_proxy_h [SLAVE_STATUS_CHECK] AFTER_FORK_JOIN_ANY:: SLAVE_WRESP_CHANNEL_STATUS = 
 WAITING
UVM_INFO ../../src/verif/bfm/write_fifo/axi4_slave_nbk_write_64b_transfer_seq.sv(41) @ 165000: uvm_test_top.axi_env_h.axi_slave_agent.axi4_slave_write_seqr_h@@axi4_slave_nbk_write_64b_transfer_seq_h [SLAVE_WRITE_NBK_SEQ] slave_seq = 
--------------------------------------------------------------------
Name                 Type           Size  Value                     
--------------------------------------------------------------------
req                  axi4_slave_tx  -     @1716                     
  tx_type            string         4     READ                      
  arid               string         6     ARID_2                    
  araddr             integral       32    'he69b3c64                
  arlen              integral       8     192                       
  arsize             string         13    READ_32_BYTES             
  arburst            string         9     READ_WRAP                 
  arlock             string         18    READ_NORMAL_ACCESS        
  arcache            string         13    READ_ALLOCATE             
  arprot             string         26    READ_NORMAL_NONSECURE_DATA
  arqos              integral       1     'h0                       
  rid                string         5     RID_2                     
  rdata[0]           integral       56    'h6afb32520b218f          
  rdata[1]           integral       56    'h8d684e9bc3c6c8          
  rdata[2]           integral       56    'h716a68ddba3270          
  rdata[3]           integral       56    'h63ff5c7a196755          
  rdata[4]           integral       56    'hcb6f5edac543f0          
  rdata[5]           integral       56    'hf5f0119aadbe74          
  rdata[6]           integral       56    'h92f65e948c1674          
  rdata[7]           integral       56    'h6de6e7f524be13          
  rdata[8]           integral       56    'h994fe8c4b12707          
  rdata[9]           integral       56    'h86c545bb4a07b5          
  rdata[10]          integral       56    'h56fbb7251d0854          
  rdata[11]          integral       56    'hc1a235d61791ba          
  rdata[12]          integral       56    'h5112ce6d3543ba          
  rdata[13]          integral       56    'h79f74617474fbb          
  rdata[14]          integral       56    'h3443b4162fd080          
  rdata[15]          integral       56    'h8d9eee47275381          
  rdata[16]          integral       56    'h166094b444a04c          
  rdata[17]          integral       56    'h15e31cdeb1241e          
  rdata[18]          integral       56    'h9bc727bbb8ae59          
  rdata[19]          integral       56    'h3798648a3cb4ed          
  rdata[20]          integral       56    'h12fbb6b34cfe3c          
  rdata[21]          integral       56    'hccd86aeadf5d8c          
  rdata[22]          integral       56    'h7aa1f6ee007ab2          
  rdata[23]          integral       56    'h438f99a8b3a973          
  rdata[24]          integral       56    'h4abdc57116d2a1          
  rdata[25]          integral       56    'h65c5df4d567abe          
  rdata[26]          integral       56    'h58bc1b20235b63          
  rdata[27]          integral       56    'h31544bcb9b4a30          
  rdata[28]          integral       56    'h5d910e0478403a          
  rdata[29]          integral       56    'h659aa888c8b923          
  rdata[30]          integral       56    'hb88b1e9e5e4231          
  rdata[31]          integral       56    'hb9e0c7dfdeb95a          
  rdata[32]          integral       56    'h5411a444a91590          
  rdata[33]          integral       56    'ha21977aaf25c5           
  rdata[34]          integral       56    'hf4b06807ea2d34          
  rdata[35]          integral       56    'h73932eb479324f          
  rdata[36]          integral       56    'h26aa081c61d7d5          
  rdata[37]          integral       56    'h22e445d4b0f05           
  rdata[38]          integral       56    'h37fb7250801c89          
  rdata[39]          integral       56    'h35c8b2a687c574          
  rdata[40]          integral       56    'h3edf29e7e3482a          
  rdata[41]          integral       56    'h287ecc6636e05b          
  rdata[42]          integral       56    'h9607bbf35c21e3          
  rdata[43]          integral       56    'h1acc3c7bf7e34b          
  rdata[44]          integral       56    'ha45cb9335db456          
  rdata[45]          integral       56    'hb55bc5b76998c7          
  rdata[46]          integral       56    'h3576de79438ce7          
  rdata[47]          integral       56    'hafa835e88f3227          
  rdata[48]          integral       56    'h52ed3763f38f8a          
  rdata[49]          integral       56    'ha40638e5526622          
  rdata[50]          integral       56    'h292b8cae0b6651          
  rdata[51]          integral       56    'h7f3f9fd0e34c32          
  rdata[52]          integral       56    'h1b727b7f625244          
  rdata[53]          integral       56    'h57bbd9d77c5e6e          
  rdata[54]          integral       56    'he90b3d3bef38f2          
  rdata[55]          integral       56    'h84c612599e9049          
  rdata[56]          integral       56    'h914225981ef09f          
  rdata[57]          integral       56    'hf39bad475a2e33          
  rdata[58]          integral       56    'hac0923398b9c2           
  rdata[59]          integral       56    'he4ed0bbedc23c1          
  rdata[60]          integral       56    'h405230ca6ae4f0          
  rdata[61]          integral       56    'hf18257a2a3a58a          
  rdata[62]          integral       56    'h7393ed447ed190          
  rdata[63]          integral       56    'hdea059bf25344c          
  rdata[64]          integral       56    'hd549d2fb7df328          
  rdata[65]          integral       56    'h60ee2da009ad3a          
  rdata[66]          integral       56    'hb9e9bd4f16073d          
  rdata[67]          integral       56    'hba36c0c310fdf3          
  rdata[68]          integral       56    'h25a377de7fdc0f          
  rdata[69]          integral       56    'h271c56a2baea2e          
  rdata[70]          integral       56    'h5e02979ef424d2          
  rdata[71]          integral       56    'h3eff50279115ef          
  rdata[72]          integral       56    'hc57e50e82f525           
  rdata[73]          integral       56    'hf88559d325b132          
  rdata[74]          integral       56    'he53a46ff05a0c9          
  rdata[75]          integral       56    'hd5aafa43cfd75b          
  rdata[76]          integral       56    'h85af69e8c2a5e           
  rdata[77]          integral       56    'h895348623a66db          
  rdata[78]          integral       56    'hf70bae25d5b132          
  rdata[79]          integral       56    'hdbf9332be48166          
  rdata[80]          integral       56    'hea526dac839702          
  rdata[81]          integral       56    'h57d5830c4f1a7d          
  rdata[82]          integral       56    'hce93a9fd944931          
  rdata[83]          integral       56    'h6e51ec66188a8a          
  rdata[84]          integral       56    'h44eb10a251812a          
  rdata[85]          integral       56    'ha9489e28dad8e           
  rdata[86]          integral       56    'h5406e2b29eacd6          
  rdata[87]          integral       56    'hd09d52a6a8a6c7          
  rdata[88]          integral       56    'h33842316586bdd          
  rdata[89]          integral       56    'h3d24cee7584bfe          
  rdata[90]          integral       56    'h6bc861fa375905          
  rdata[91]          integral       56    'hc0c0d8486cec36          
  rdata[92]          integral       56    'h9594c49ead1e09          
  rdata[93]          integral       56    'he34ab95dc16903          
  rdata[94]          integral       56    'h4bb31a9efe83ed          
  rdata[95]          integral       56    'hda8c89c01157ad          
  rdata[96]          integral       56    'h149f8c73dd745b          
  rdata[97]          integral       56    'hfb2b5f79b05db7          
  rdata[98]          integral       56    'h5924eac30e27b8          
  rdata[99]          integral       56    'he3335023daec63          
  rdata[100]         integral       56    'hd8f38ab3960083          
  rdata[101]         integral       56    'h5456abc8347e8f          
  rdata[102]         integral       56    'h52c7465fbeec60          
  rdata[103]         integral       56    'h1aa6b56e119718          
  rdata[104]         integral       56    'hfddb57348de1d1          
  rdata[105]         integral       56    'h5dad35df60d6ce          
  rdata[106]         integral       56    'h499b7dcdfd6fe7          
  rdata[107]         integral       56    'hfbce5409bc2101          
  rdata[108]         integral       56    'h24abc344932723          
  rdata[109]         integral       56    'h7ac1ebca9f46cb          
  rdata[110]         integral       56    'hbf3dc8af025db           
  rdata[111]         integral       56    'h7f70621b7b73b0          
  rdata[112]         integral       56    'he2f3e7ae62f634          
  rdata[113]         integral       56    'h504e0d19f20b87          
  rdata[114]         integral       56    'hd598ee7154343a          
  rdata[115]         integral       56    'hf31fd13e297ff           
  rdata[116]         integral       56    'haf7017290da8ee          
  rdata[117]         integral       56    'h74f272ae435825          
  rdata[118]         integral       56    'ha9d6aa058397e           
  rdata[119]         integral       56    'h8c8c972fcf5394          
  rdata[120]         integral       56    'h50c0078da6743b          
  rdata[121]         integral       56    'hac6134677a915f          
  rdata[122]         integral       56    'hcb037244bad9a8          
  rdata[123]         integral       56    'hd992ac88f9e1d6          
  rdata[124]         integral       56    'h13a841adabfc3b          
  rdata[125]         integral       56    'hd9a87bb8c4587d          
  rdata[126]         integral       56    'hd4cfd6fc31c4a1          
  rdata[127]         integral       56    'h448c80b21f358e          
  rdata[128]         integral       56    'h85529ab5e34963          
  rdata[129]         integral       56    'h291a89440d8572          
  rdata[130]         integral       56    'h46785fe6e866d9          
  rdata[131]         integral       56    'he063e33a7ab569          
  rdata[132]         integral       56    'h82d6daaea158d9          
  rdata[133]         integral       56    'hfb007af11edb32          
  rdata[134]         integral       56    'h1f39ac3bd901f8          
  rdata[135]         integral       56    'ha2254f5d0478aa          
  rdata[136]         integral       56    'h1aecb6ce06e64b          
  rdata[137]         integral       56    'h663b6f9bd62701          
  rdata[138]         integral       56    'hbf9a53add8cbad          
  rdata[139]         integral       56    'hffa010133a26fe          
  rdata[140]         integral       56    'h6212f90767e4c4          
  rdata[141]         integral       56    'h46222b2eaaff69          
  rdata[142]         integral       56    'h13ea63617283b1          
  rdata[143]         integral       56    'ha39a188d6be0bd          
  rdata[144]         integral       56    'h4d473be6d24fef          
  rdata[145]         integral       56    'h7b67b14d41e1e5          
  rdata[146]         integral       56    'h7e5043c08ace1a          
  rdata[147]         integral       56    'h8b8f78719141cd          
  rdata[148]         integral       56    'h9bffa8fe034694          
  rdata[149]         integral       56    'h2acdfb27e7335           
  rdata[150]         integral       56    'he116256d23e4aa          
  rdata[151]         integral       56    'h72127705bf7e52          
  rdata[152]         integral       56    'h956a4bcdd2ef35          
  rdata[153]         integral       56    'h94992c6c7e19fa          
  rdata[154]         integral       56    'hb0cfa1d58e56e7          
  rdata[155]         integral       56    'hc5739cc5dee302          
  rdata[156]         integral       56    'h38e89665120bce          
  rdata[157]         integral       56    'h6a18b5a4e0c669          
  rdata[158]         integral       56    'h63e631e9e3aaf0          
  rdata[159]         integral       56    'h4c5765aa7d22a4          
  rdata[160]         integral       56    'h5ef8ea37da07d6          
  rdata[161]         integral       56    'hc4009444000122          
  rdata[162]         integral       56    'hac3b0e9ff0e142          
  rdata[163]         integral       56    'hbe215cc9e1380a          
  rdata[164]         integral       56    'ha94e94b409943c          
  rdata[165]         integral       56    'h99347ee6fa212           
  rdata[166]         integral       56    'h8b27f71d98dbd0          
  rdata[167]         integral       56    'h3665d1173a699f          
  rdata[168]         integral       56    'h1d8b0e8bba7149          
  rdata[169]         integral       56    'hd6c2ece3eb16da          
  rdata[170]         integral       56    'h278dd85174fce4          
  rdata[171]         integral       56    'hf3a83fc5481456          
  rdata[172]         integral       56    'hb7aa0b113991bb          
  rdata[173]         integral       56    'hc9a5ef0988c641          
  rdata[174]         integral       56    'h89ba6b69b80fa5          
  rdata[175]         integral       56    'he706adb8745fbe          
  rdata[176]         integral       56    'h855a68b364412a          
  rdata[177]         integral       56    'ha59056ed448125          
  rdata[178]         integral       56    'h163a5bcfc788e9          
  rdata[179]         integral       56    'h30fb61814c843           
  rdata[180]         integral       56    'hc06c2f61b1c8cc          
  rdata[181]         integral       56    'hc69e143f24d1e3          
  rdata[182]         integral       56    'h446924c780dec2          
  rdata[183]         integral       56    'h86fe8db0ce40f2          
  rdata[184]         integral       56    'h8384f340cb66fb          
  rdata[185]         integral       56    'hf217c084645045          
  rdata[186]         integral       56    'h428c46d5b0fcbf          
  rdata[187]         integral       56    'he9eb754a087259          
  rdata[188]         integral       56    'h75aaa1b277014a          
  rdata[189]         integral       56    'he5fdc80240e457          
  rdata[190]         integral       56    'h9e1a95efd70a55          
  rdata[191]         integral       56    'he7d741b48b6921          
  rdata[192]         integral       56    'hee4a3cb3c2691d          
  rresp              string         9     READ_OKAY                 
  ruser              integral       4     'h5                       
  no_of_wait_states  integral       32    'h0                       
--------------------------------------------------------------------

running drive task
type of axi = 1
---------------------------------------------------------------------------------------------------------------------
Name                           Type               Size  Value                                                        
---------------------------------------------------------------------------------------------------------------------
req                            uvm_sequence_item  -     @1575                                                        
  awid                         integral           4     'h3                                                          
  awaddr                       integral           32    'hb547993a                                                   
  awlen                        integral           4     'h7                                                          
  awsize                       integral           3     'h3                                                          
  awburst                      integral           2     'h1                                                          
  awlock                       integral           2     'h0                                                          
  awcache                      integral           2     'h0                                                          
  awprot                       integral           3     'h2                                                          
  awqos                        integral           4     'ha                                                          
  awregion                     integral           4     'he                                                          
  wdata                        integral           56    'h944b8bb481dda6                                             
  wstrb                        integral           4     'hf                                                          
  wlast                        integral           1     'h0                                                          
  wid                          integral           4     'hc                                                          
  bid                          integral           4     'h4                                                          
  bresp                        integral           2     'h1                                                          
  arid                         integral           4     'h6                                                          
  araddr                       integral           32    'h4574a6f8                                                   
  arlen                        integral           8     'h4c                                                         
  arsize                       integral           3     'h4                                                          
  arburst                      integral           2     'h1                                                          
  arlock                       integral           2     'h2                                                          
  arcache                      integral           4     'h6                                                          
  arprot                       integral           3     'h1                                                          
  arqos                        integral           4     'h9                                                          
  arregion                     integral           4     'h8                                                          
  rid                          integral           4     'h8                                                          
  rdata                        integral           56    'hc0a7806b1a650d                                             
  rresp                        integral           2     'h1                                                          
  rlast                        integral           1     'h0                                                          
  begin_time                   time               64    165000                                                       
  depth                        int                32    'd2                                                          
  parent sequence (name)       string             11    fifo_wr_seq                                                  
  parent sequence (full name)  string             61    uvm_test_top.axi_env_h.write_fifo_agent.sequencer.fifo_wr_seq
  sequencer                    string             49    uvm_test_top.axi_env_h.write_fifo_agent.sequencer            
---------------------------------------------------------------------------------------------------------------------
"../../src/hdl_top/slave_assertions.sv", 124: top.genblk1[0].axi4_slave_agent_bfm_h.axi4_slave_drv_bfm_h.S_A.AXI_WD_UNKNOWN_SIGNALS_CHECK: started at 165000ps failed at 165000ps
	Offending '((((!$isunknown(wdata)) && (!$isunknown(wstrb))) && (!$isunknown(wlast))) && (!$isunknown(wuser)))'
UVM_INFO ../../src/hdl_top/slave_agent_bfm/axi4_slave_driver_bfm.sv(136) @ 175000: reporter [AXI4_SLAVE_DRIVER_BFM] INSIDE WRITE_ADDRESS_PHASE
"../../src/hdl_top/slave_assertions.sv", 124: top.genblk1[0].axi4_slave_agent_bfm_h.axi4_slave_drv_bfm_h.S_A.AXI_WD_UNKNOWN_SIGNALS_CHECK: started at 175000ps failed at 175000ps
	Offending '((((!$isunknown(wdata)) && (!$isunknown(wstrb))) && (!$isunknown(wlast))) && (!$isunknown(wuser)))'
"../../src/hdl_top/slave_assertions.sv", 116: top.genblk1[0].axi4_slave_agent_bfm_h.axi4_slave_drv_bfm_h.S_A.AXI_WD_STABLE_SIGNALS_CHECK: started at 165000ps failed at 175000ps
	Offending '((($stable(wdata) && $stable(wstrb)) && $stable(wlast)) && $stable(wuser))'
DRIVER, inside write address queue
"../../src/hdl_top/slave_assertions.sv", 124: top.genblk1[0].axi4_slave_agent_bfm_h.axi4_slave_drv_bfm_h.S_A.AXI_WD_UNKNOWN_SIGNALS_CHECK: started at 185000ps failed at 185000ps
	Offending '((((!$isunknown(wdata)) && (!$isunknown(wstrb))) && (!$isunknown(wlast))) && (!$isunknown(wuser)))'
DRIVER, finished drive task
running drive task
type of axi = 1
---------------------------------------------------------------------------------------------------------------------
Name                           Type               Size  Value                                                        
---------------------------------------------------------------------------------------------------------------------
req                            uvm_sequence_item  -     @1575                                                        
  awid                         integral           4     'h3                                                          
  awaddr                       integral           32    'h21fae3de                                                   
  awlen                        integral           4     'h7                                                          
  awsize                       integral           3     'h3                                                          
  awburst                      integral           2     'h1                                                          
  awlock                       integral           2     'h0                                                          
  awcache                      integral           2     'h0                                                          
  awprot                       integral           3     'h2                                                          
  awqos                        integral           4     'he                                                          
  awregion                     integral           4     'hb                                                          
  wdata                        integral           56    'hc59459b366d286                                             
  wstrb                        integral           4     'hf                                                          
  wlast                        integral           1     'h1                                                          
  wid                          integral           4     'h0                                                          
  bid                          integral           4     'h6                                                          
  bresp                        integral           2     'h2                                                          
  arid                         integral           4     'ha                                                          
  araddr                       integral           32    'heb1f2b33                                                   
  arlen                        integral           8     'hca                                                         
  arsize                       integral           3     'h2                                                          
  arburst                      integral           2     'h3                                                          
  arlock                       integral           2     'h2                                                          
  arcache                      integral           4     'ha                                                          
  arprot                       integral           3     'h6                                                          
  arqos                        integral           4     'h3                                                          
  arregion                     integral           4     'ha                                                          
  rid                          integral           4     'h4                                                          
  rdata                        integral           56    'h327da3fdaa8573                                             
  rresp                        integral           2     'h1                                                          
  rlast                        integral           1     'h0                                                          
  begin_time                   time               64    195000                                                       
  depth                        int                32    'd2                                                          
  parent sequence (name)       string             11    fifo_wr_seq                                                  
  parent sequence (full name)  string             61    uvm_test_top.axi_env_h.write_fifo_agent.sequencer.fifo_wr_seq
  sequencer                    string             49    uvm_test_top.axi_env_h.write_fifo_agent.sequencer            
---------------------------------------------------------------------------------------------------------------------
"../../src/hdl_top/slave_assertions.sv", 124: top.genblk1[0].axi4_slave_agent_bfm_h.axi4_slave_drv_bfm_h.S_A.AXI_WD_UNKNOWN_SIGNALS_CHECK: started at 195000ps failed at 195000ps
	Offending '((((!$isunknown(wdata)) && (!$isunknown(wstrb))) && (!$isunknown(wlast))) && (!$isunknown(wuser)))'
UVM_INFO ../../src/verif/vip/axi_slave_vip/axi4_slave_driver_proxy.sv(209) @ 205000: uvm_test_top.axi_env_h.axi_slave_agent.axi4_slave_drv_proxy_h [DEBUG_SLAVE_WDATA_PROXY_TO_CLASS] AFTER TO CLASS :: Received req packet 
 ------------------------------------------------------------
Name           Type           Size  Value                   
------------------------------------------------------------
axi4_slave_tx  axi4_slave_tx  -     @1728                   
  tx_type      string         5     WRITE                   
  awid         string         6     AWID_0                  
  awaddr       integral       32    'h0                     
  awlen        integral       8     'd0                     
  awsize       string         12    WRITE_1_BYTE            
  awburst      string         11    WRITE_FIXED             
  awlock       string         19    WRITE_NORMAL_ACCESS     
  awcache      string         16    WRITE_BUFFERABLE        
  awprot       string         24    WRITE_NORMAL_SECURE_DATA
  awqos        integral       1     'h0                     
  wdata[0]     integral       56    'h539daee9              
  wstrb[0]     integral       7     'hf                     
  wlast        integral       1     'd0                     
  wuser        integral       4     'd0                     
  bid          string         5     BID_0                   
  bresp        string         10    WRITE_OKAY              
  buser        integral       4     'd0                     
------------------------------------------------------------

"../../src/hdl_top/slave_assertions.sv", 124: top.genblk1[0].axi4_slave_agent_bfm_h.axi4_slave_drv_bfm_h.S_A.AXI_WD_UNKNOWN_SIGNALS_CHECK: started at 205000ps failed at 205000ps
	Offending '((((!$isunknown(wdata)) && (!$isunknown(wstrb))) && (!$isunknown(wlast))) && (!$isunknown(wuser)))'
DRIVER, inside write address queue
UVM_INFO ../../src/hdl_top/slave_agent_bfm/axi4_slave_driver_bfm.sv(254) @ 215000: reporter [AXI4_SLAVE_DRIVER_BFM] INSIDE WRITE_RESPONSE_PHASE
"../../src/hdl_top/slave_assertions.sv", 124: top.genblk1[0].axi4_slave_agent_bfm_h.axi4_slave_drv_bfm_h.S_A.AXI_WD_UNKNOWN_SIGNALS_CHECK: started at 215000ps failed at 215000ps
	Offending '((((!$isunknown(wdata)) && (!$isunknown(wstrb))) && (!$isunknown(wlast))) && (!$isunknown(wuser)))'
DRIVER, finished drive task
running drive task
type of axi = 1
---------------------------------------------------------------------------------------------------------------------
Name                           Type               Size  Value                                                        
---------------------------------------------------------------------------------------------------------------------
req                            uvm_sequence_item  -     @1575                                                        
  awid                         integral           4     'hf                                                          
  awaddr                       integral           32    'h850a405b                                                   
  awlen                        integral           4     'h7                                                          
  awsize                       integral           3     'h3                                                          
  awburst                      integral           2     'h1                                                          
  awlock                       integral           2     'h0                                                          
  awcache                      integral           2     'h0                                                          
  awprot                       integral           3     'h5                                                          
  awqos                        integral           4     'h7                                                          
  awregion                     integral           4     'he                                                          
  wdata                        integral           56    'h10c26bd4028037                                             
  wstrb                        integral           4     'hf                                                          
  wlast                        integral           1     'h1                                                          
  wid                          integral           4     'h8                                                          
  bid                          integral           4     'hc                                                          
  bresp                        integral           2     'h0                                                          
  arid                         integral           4     'h9                                                          
  araddr                       integral           32    'hfe49d562                                                   
  arlen                        integral           8     'hdd                                                         
  arsize                       integral           3     'h7                                                          
  arburst                      integral           2     'h2                                                          
  arlock                       integral           2     'h2                                                          
  arcache                      integral           4     'ha                                                          
  arprot                       integral           3     'h7                                                          
  arqos                        integral           4     'h5                                                          
  arregion                     integral           4     'hd                                                          
  rid                          integral           4     'h0                                                          
  rdata                        integral           56    'h8f63639441b2f0                                             
  rresp                        integral           2     'h3                                                          
  rlast                        integral           1     'h0                                                          
  begin_time                   time               64    225000                                                       
  depth                        int                32    'd2                                                          
  parent sequence (name)       string             11    fifo_wr_seq                                                  
  parent sequence (full name)  string             61    uvm_test_top.axi_env_h.write_fifo_agent.sequencer.fifo_wr_seq
  sequencer                    string             49    uvm_test_top.axi_env_h.write_fifo_agent.sequencer            
---------------------------------------------------------------------------------------------------------------------
"../../src/hdl_top/slave_assertions.sv", 124: top.genblk1[0].axi4_slave_agent_bfm_h.axi4_slave_drv_bfm_h.S_A.AXI_WD_UNKNOWN_SIGNALS_CHECK: started at 225000ps failed at 225000ps
	Offending '((((!$isunknown(wdata)) && (!$isunknown(wstrb))) && (!$isunknown(wlast))) && (!$isunknown(wuser)))'
"../../src/hdl_top/slave_assertions.sv", 124: top.genblk1[0].axi4_slave_agent_bfm_h.axi4_slave_drv_bfm_h.S_A.AXI_WD_UNKNOWN_SIGNALS_CHECK: started at 235000ps failed at 235000ps
	Offending '((((!$isunknown(wdata)) && (!$isunknown(wstrb))) && (!$isunknown(wlast))) && (!$isunknown(wuser)))'
"../../src/hdl_top/slave_assertions.sv", 116: top.genblk1[0].axi4_slave_agent_bfm_h.axi4_slave_drv_bfm_h.S_A.AXI_WD_STABLE_SIGNALS_CHECK: started at 225000ps failed at 235000ps
	Offending '((($stable(wdata) && $stable(wstrb)) && $stable(wlast)) && $stable(wuser))'
DRIVER, inside write address queue
"../../src/hdl_top/slave_assertions.sv", 124: top.genblk1[0].axi4_slave_agent_bfm_h.axi4_slave_drv_bfm_h.S_A.AXI_WD_UNKNOWN_SIGNALS_CHECK: started at 245000ps failed at 245000ps
	Offending '((((!$isunknown(wdata)) && (!$isunknown(wstrb))) && (!$isunknown(wlast))) && (!$isunknown(wuser)))'
DRIVER, finished drive task
running drive task
type of axi = 1
---------------------------------------------------------------------------------------------------------------------
Name                           Type               Size  Value                                                        
---------------------------------------------------------------------------------------------------------------------
req                            uvm_sequence_item  -     @1575                                                        
  awid                         integral           4     'h5                                                          
  awaddr                       integral           32    'h7108dac8                                                   
  awlen                        integral           4     'h7                                                          
  awsize                       integral           3     'h3                                                          
  awburst                      integral           2     'h1                                                          
  awlock                       integral           2     'h0                                                          
  awcache                      integral           2     'h0                                                          
  awprot                       integral           3     'h3                                                          
  awqos                        integral           4     'h6                                                          
  awregion                     integral           4     'h6                                                          
  wdata                        integral           56    'h3ed1196952257e                                             
  wstrb                        integral           4     'hf                                                          
  wlast                        integral           1     'h1                                                          
  wid                          integral           4     'hc                                                          
  bid                          integral           4     'hd                                                          
  bresp                        integral           2     'h0                                                          
  arid                         integral           4     'h8                                                          
  araddr                       integral           32    'hb77fa156                                                   
  arlen                        integral           8     'hed                                                         
  arsize                       integral           3     'h6                                                          
  arburst                      integral           2     'h2                                                          
  arlock                       integral           2     'h2                                                          
  arcache                      integral           4     'hd                                                          
  arprot                       integral           3     'h5                                                          
  arqos                        integral           4     'h2                                                          
  arregion                     integral           4     'h9                                                          
  rid                          integral           4     'hd                                                          
  rdata                        integral           56    'h2356d34140af7                                              
  rresp                        integral           2     'h1                                                          
  rlast                        integral           1     'h0                                                          
  begin_time                   time               64    255000                                                       
  depth                        int                32    'd2                                                          
  parent sequence (name)       string             11    fifo_wr_seq                                                  
  parent sequence (full name)  string             61    uvm_test_top.axi_env_h.write_fifo_agent.sequencer.fifo_wr_seq
  sequencer                    string             49    uvm_test_top.axi_env_h.write_fifo_agent.sequencer            
---------------------------------------------------------------------------------------------------------------------
"../../src/hdl_top/slave_assertions.sv", 124: top.genblk1[0].axi4_slave_agent_bfm_h.axi4_slave_drv_bfm_h.S_A.AXI_WD_UNKNOWN_SIGNALS_CHECK: started at 255000ps failed at 255000ps
	Offending '((((!$isunknown(wdata)) && (!$isunknown(wstrb))) && (!$isunknown(wlast))) && (!$isunknown(wuser)))'
"../../src/hdl_top/slave_assertions.sv", 124: top.genblk1[0].axi4_slave_agent_bfm_h.axi4_slave_drv_bfm_h.S_A.AXI_WD_UNKNOWN_SIGNALS_CHECK: started at 265000ps failed at 265000ps
	Offending '((((!$isunknown(wdata)) && (!$isunknown(wstrb))) && (!$isunknown(wlast))) && (!$isunknown(wuser)))'
"../../src/hdl_top/slave_assertions.sv", 116: top.genblk1[0].axi4_slave_agent_bfm_h.axi4_slave_drv_bfm_h.S_A.AXI_WD_STABLE_SIGNALS_CHECK: started at 255000ps failed at 265000ps
	Offending '((($stable(wdata) && $stable(wstrb)) && $stable(wlast)) && $stable(wuser))'
DRIVER, inside write address queue
"../../src/hdl_top/slave_assertions.sv", 124: top.genblk1[0].axi4_slave_agent_bfm_h.axi4_slave_drv_bfm_h.S_A.AXI_WD_UNKNOWN_SIGNALS_CHECK: started at 275000ps failed at 275000ps
	Offending '((((!$isunknown(wdata)) && (!$isunknown(wstrb))) && (!$isunknown(wlast))) && (!$isunknown(wuser)))'
DRIVER, finished drive task
running drive task
type of axi = 1
---------------------------------------------------------------------------------------------------------------------
Name                           Type               Size  Value                                                        
---------------------------------------------------------------------------------------------------------------------
req                            uvm_sequence_item  -     @1575                                                        
  awid                         integral           4     'h1                                                          
  awaddr                       integral           32    'h93d25a05                                                   
  awlen                        integral           4     'h7                                                          
  awsize                       integral           3     'h3                                                          
  awburst                      integral           2     'h1                                                          
  awlock                       integral           2     'h0                                                          
  awcache                      integral           2     'h0                                                          
  awprot                       integral           3     'h1                                                          
  awqos                        integral           4     'h1                                                          
  awregion                     integral           4     'h0                                                          
  wdata                        integral           56    'h89c4fc4b8579f5                                             
  wstrb                        integral           4     'hf                                                          
  wlast                        integral           1     'h1                                                          
  wid                          integral           4     'hc                                                          
  bid                          integral           4     'hf                                                          
  bresp                        integral           2     'h3                                                          
  arid                         integral           4     'h0                                                          
  araddr                       integral           32    'hdf713fdf                                                   
  arlen                        integral           8     'hf2                                                         
  arsize                       integral           3     'h2                                                          
  arburst                      integral           2     'h2                                                          
  arlock                       integral           2     'h0                                                          
  arcache                      integral           4     'h8                                                          
  arprot                       integral           3     'h6                                                          
  arqos                        integral           4     'h4                                                          
  arregion                     integral           4     'h0                                                          
  rid                          integral           4     'ha                                                          
  rdata                        integral           56    'h73e4d062ca2e74                                             
  rresp                        integral           2     'h2                                                          
  rlast                        integral           1     'h0                                                          
  begin_time                   time               64    285000                                                       
